!Keysight Technologies,N5224B,MY60213280,A.17.35.14
!Date: Tuesday, May 26, 2026 17:05:40
!Correction: S11(C  2-Port  ) 
!S21(C  2-Port  ) 
!S12(C  2-Port  ) 
!S22(C  2-Port  ) 
!S2P File: Measurements: S11, S21, S12, S22:
# Hz S  dB   R 50
140000000000 -35.825829 79.084785 -20.882803 -150.40848 -20.870832 -154.85294 -24.422106 -93.546188
140100000000 -32.258804 86.322533 -20.863718 -173.53029 -20.865246 -177.0815 -26.873741 -104.82291
140200000000 -29.930916 78.778191 -20.94359 163.39755 -20.952332 160.53519 -29.933832 -104.52863
140300000000 -29.311623 65.819679 -21.090008 141.62325 -21.101582 138.40404 -32.36425 -87.760689
140400000000 -29.334095 52.306793 -21.267702 119.95583 -21.277849 117.61401 -30.444868 -74.22242
140500000000 -30.508907 42.319946 -21.384619 98.627213 -21.403078 97.158699 -28.022018 -79.875725
140600000000 -32.456493 43.421417 -21.38629 79.501122 -21.38686 76.601723 -25.796488 -93.123009
140700000000 -34.800758 57.579308 -21.248423 57.921165 -21.240541 56.603878 -24.811119 -110.71341
140800000000 -34.807716 80.763306 -21.017786 36.819138 -21.017542 35.313709 -24.67605 -128.29132
140900000000 -32.529606 92.326561 -20.814629 14.726144 -20.834221 12.930144 -25.041502 -147.43797
141000000000 -30.168884 90.662354 -20.706137 -8.5777063 -20.73385 -9.00109 -26.024187 -167.29698
141100000000 -28.173498 83.123398 -20.736832 -31.335678 -20.742233 -32.168839 -27.435907 178.72522
141200000000 -26.995163 75.504425 -20.885323 -53.843575 -20.876579 -54.914989 -29.353498 168.12979
141300000000 -26.373068 68.169556 -21.091059 -75.735527 -21.066851 -76.081963 -32.273209 171.91017
141400000000 -26.791899 63.51339 -21.239666 -96.651619 -21.211565 -97.103691 -31.581419 -179.42899
141500000000 -27.26059 57.468071 -21.258469 -116.89858 -21.245239 -117.64054 -30.187426 -175.51099
141600000000 -27.933199 54.351265 -21.195314 -138.07939 -21.192146 -137.93607 -28.444674 177.39732
141700000000 -27.713108 57.084732 -21.057487 -159.48466 -21.070589 -158.8378 -27.723652 166.70766
141800000000 -27.594734 59.87397 -20.931786 179.49672 -20.947992 179.45029 -26.659754 155.84325
141900000000 -26.758505 61.935055 -20.869144 156.96664 -20.873962 157.2661 -26.018625 144.34679
142000000000 -25.698528 59.240265 -20.892437 134.60114 -20.890219 135.62772 -25.603554 135.46178
142100000000 -24.864388 54.590336 -20.898487 113.81265 -20.906553 113.68154 -25.790642 124.28267
142200000000 -24.315258 47.843296 -20.893858 91.765976 -20.90604 92.026253 -26.234127 111.59323
142300000000 -24.191069 41.083065 -20.946262 69.843925 -20.948008 70.686157 -27.045607 101.8136
142400000000 -24.297136 34.386417 -21.00182 49.21933 -20.998285 48.753998 -28.34626 100.03135
142500000000 -24.552977 28.154839 -21.050453 27.578768 -21.049202 28.101879 -29.326788 105.72016
142600000000 -24.941458 25.499189 -21.090107 6.2116647 -21.0793 7.0385981 -28.948475 115.00668
142700000000 -25.219452 26.38364 -21.080463 -14.142299 -21.069921 -14.330304 -27.190371 117.47882
142800000000 -25.247 24.951288 -21.021944 -35.359703 -21.018496 -34.785931 -25.73333 109.0279
142900000000 -25.016073 22.86939 -20.941019 -56.936497 -20.957945 -56.330902 -24.700632 97.305496
143000000000 -24.276205 19.185375 -20.874504 -77.926254 -20.890717 -77.780083 -24.283083 83.003769
143100000000 -23.680758 10.193817 -20.826515 -100.21111 -20.834578 -99.695534 -24.674854 69.248383
143200000000 -23.703615 5.209012 -20.834463 -122.41285 -20.831741 -121.57809 -26.314306 55.722675
143300000000 -24.305151 -2.8020103 -20.926344 -143.61603 -20.902201 -143.43707 -29.274153 51.471169
143400000000 -24.995955 -9.5253811 -21.052664 -164.9059 -21.036493 -165.18767 -32.475155 69.932312
143500000000 -25.510115 -14.845308 -21.124556 174.20131 -21.122478 174.47749 -30.431772 98.031532
143600000000 -26.007074 -15.167127 -21.10717 154.51299 -21.11396 153.55995 -27.468756 94.442635
143700000000 -25.871527 -12.122713 -21.007528 133.05487 -21.019426 133.16797 -25.742189 81.655617
143800000000 -25.47505 -13.615361 -20.895834 111.75794 -20.905268 111.95924 -24.860491 66.501595
143900000000 -25.331015 -20.324553 -20.835098 90.65744 -20.835913 89.507362 -25.059296 51.082706
144000000000 -24.943386 -28.729387 -20.84495 68.592041 -20.840681 68.296623 -26.299135 36.502365
144100000000 -24.598003 -39.359077 -20.937796 46.862518 -20.936773 46.091076 -29.240175 24.514587
144200000000 -25.076559 -49.348389 -21.02033 26.577005 -21.021406 25.139656 -34.473789 31.444252
144300000000 -25.954454 -59.93399 -21.028484 5.0450096 -21.044741 4.9246564 -35.941433 74.479576
144400000000 -27.300192 -66.214516 -20.970112 -15.128367 -20.982239 -16.043495 -32.023727 87.09549
144500000000 -28.954702 -69.809502 -20.866428 -35.66106 -20.868223 -36.683239 -29.602858 83.389938
144600000000 -30.059757 -73.094917 -20.804867 -57.432037 -20.80307 -58.823475 -28.648111 77.269661
144700000000 -31.062819 -71.948257 -20.77924 -79.116859 -20.783794 -80.558769 -27.461044 70.567955
144800000000 -30.393682 -66.384323 -20.814867 -100.33894 -20.815908 -101.83521 -27.304411 60.506042
144900000000 -28.887558 -72.570808 -20.868931 -121.30383 -20.890114 -123.54221 -28.103241 53.421078
145000000000 -28.302301 -81.73587 -20.93429 -142.82559 -20.94364 -144.74043 -29.715734 46.468166
145100000000 -28.024059 -91.858948 -20.965609 -163.64551 -20.977356 -165.74713 -32.400768 44.202053
145200000000 -27.704367 -107.61932 -20.967276 176.16721 -20.983559 173.72064 -35.260815 60.942085
145300000000 -27.700415 -128.65694 -20.9641 155.32111 -20.968889 152.48346 -33.792439 94.280258
145400000000 -28.337271 -148.1263 -20.934643 134.4565 -20.933323 131.95518 -29.385132 104.26659
145500000000 -29.484882 -163.50102 -20.853731 113.65595 -20.855051 111.39697 -26.128834 98.481773
145600000000 -31.212742 178.61116 -20.745529 93.238495 -20.739729 89.643822 -24.144417 86.961952
145700000000 -34.031719 157.69447 -20.642355 71.55307 -20.641651 67.999443 -23.247179 73.616722
145800000000 -37.421799 149.01987 -20.586834 49.408272 -20.592957 46.555473 -23.236799 59.7314
145900000000 -39.767101 169.68228 -20.595106 27.948381 -20.61388 24.31031 -24.183001 45.663208
146000000000 -36.549477 -166.07761 -20.680058 6.3864021 -20.712004 1.7194208 -26.343737 36.27803
146100000000 -32.609402 -168.8597 -20.85149 -14.610401 -20.879469 -18.409107 -29.304962 44.881149
146200000000 -30.451994 177.67143 -21.002399 -35.464851 -21.027208 -38.90736 -29.206438 73.026627
146300000000 -29.124928 161.13925 -21.05633 -55.049934 -21.062166 -60.141914 -25.769848 84.813271
146400000000 -28.150352 141.60733 -20.988983 -74.188744 -20.961666 -78.723854 -23.04908 79.915955
146500000000 -27.339668 119.71184 -20.782097 -94.88546 -20.730398 -99.112579 -21.246113 66.450996
146600000000 -27.188696 101.78325 -20.512039 -116.29308 -20.46471 -121.42919 -20.489227 51.610554
146700000000 -28.137482 87.760536 -20.303053 -137.97484 -20.285181 -143.40265 -20.52994 39.442455
146800000000 -29.81391 69.340248 -20.242294 -160.32837 -20.262779 -166.2099 -21.233534 27.497707
146900000000 -32.247982 52.213558 -20.387867 176.20366 -20.43264 170.8217 -22.571735 20.882092
147000000000 -34.602627 55.156376 -20.649513 154.35886 -20.695261 149.07785 -23.466326 22.242754
147100000000 -34.925087 72.616989 -20.869663 134.78999 -20.909468 128.96384 -23.592688 25.561783
147200000000 -34.12854 87.851784 -20.946779 114.60886 -20.96258 108.90076 -23.254179 27.476427
147300000000 -32.49334 87.262253 -20.912151 93.980438 -20.914919 88.829811 -22.798201 26.978516
147400000000 -31.371019 75.759453 -20.834217 73.726593 -20.817957 68.259781 -22.355484 24.790905
147500000000 -29.847937 60.335548 -20.752457 53.375561 -20.726927 46.97678 -21.662636 19.700714
147600000000 -29.079588 45.470169 -20.670919 31.80031 -20.629808 25.410975 -20.98447 12.226833
147700000000 -29.276461 32.024666 -20.615858 10.13595 -20.589842 3.8908608 -20.534496 3.9723971
147800000000 -30.438435 16.587521 -20.605453 -11.203076 -20.594358 -17.033245 -20.495653 -5.3202434
147900000000 -32.542431 -4.9455814 -20.629189 -32.952545 -20.63554 -39.557076 -20.884853 -14.799181
148000000000 -34.920395 -27.997145 -20.663887 -54.30191 -20.691832 -60.960579 -21.672235 -22.539165
148100000000 -37.866848 -43.033409 -20.744385 -76.188988 -20.779461 -81.349579 -22.940504 -28.509539
148200000000 -43.116192 -43.804901 -20.871393 -97.261284 -20.895235 -103.52568 -24.419081 -30.347746
148300000000 -48.348377 -9.0030413 -21.001291 -117.45273 -21.01367 -124.2958 -25.169172 -26.494694
148400000000 -47.763245 31.020773 -21.088175 -138.24469 -21.077852 -143.64153 -24.772655 -23.240862
148500000000 -47.248856 27.881361 -21.089577 -158.9489 -21.070564 -164.25027 -23.707653 -24.241684
148600000000 -49.501297 -20.553097 -21.022884 -178.8678 -20.991688 174.53816 -22.675152 -30.444635
148700000000 -45.045071 -81.491806 -20.911634 160.0631 -20.884293 154.28825 -22.210125 -40.587711
148800000000 -40.354382 -120.03127 -20.843323 138.04495 -20.829613 132.51726 -22.46653 -54.219997
148900000000 -37.601151 -147.27034 -20.821293 116.50222 -20.824806 110.07412 -23.376678 -68.785004
149000000000 -35.719238 -168.91255 -20.89522 95.031136 -20.902067 88.92086 -25.060232 -80.988945
149100000000 -34.322529 167.91205 -21.087055 73.634315 -21.107264 67.436523 -27.744242 -85.609543
149200000000 -32.818829 148.8091 -21.306358 52.128487 -21.337093 47.095383 -29.928644 -73.745071
149300000000 -32.192383 138.25285 -21.385338 32.377098 -21.403328 27.656252 -29.207249 -60.645229
149400000000 -32.310349 137.06361 -21.328581 13.807397 -21.319656 8.3456163 -27.680614 -62.928322
149500000000 -32.232838 139.79221 -21.198261 -7.2408605 -21.169054 -12.466074 -27.172829 -73.790649
149600000000 -31.406923 137.16364 -21.069744 -29.271496 -21.03104 -34.245331 -27.30196 -86.844849
149700000000 -30.310869 134.45309 -20.997921 -49.73399 -20.983263 -55.345871 -27.719423 -103.10181
149800000000 -28.429209 128.2645 -21.047157 -71.39576 -21.052517 -76.855927 -28.703573 -117.85833
149900000000 -26.990431 118.47154 -21.186846 -93.723755 -21.211597 -98.658997 -30.420687 -128.46626
150000000000 -26.286114 110.84051 -21.309929 -114.25214 -21.336533 -118.94291 -33.224323 -135.90282
150100000000 -26.085081 103.54994 -21.338148 -133.55144 -21.34885 -137.58249 -36.783009 -134.60915
150200000000 -26.785704 95.623238 -21.275105 -154.14232 -21.26218 -158.81627 -38.88768 -132.78035
150300000000 -27.233011 92.487991 -21.165562 -175.27092 -21.142218 179.94482 -39.571487 -126.34543
150400000000 -27.164675 88.295357 -21.100639 163.67932 -21.077251 159.80417 -38.054688 -126.70124
150500000000 -26.865795 87.037857 -21.105154 142.28633 -21.10183 138.16859 -37.599522 -136.31119
150600000000 -26.174366 88.665817 -21.17728 120.66872 -21.179525 116.23209 -37.444782 -144.49852
150700000000 -25.305132 88.983223 -21.236156 99.453316 -21.24209 96.512787 -36.702477 -154.44685
150800000000 -24.514225 85.985207 -21.268904 79.417458 -21.27249 76.32695 -36.219318 -170.87389
150900000000 -23.778591 78.045952 -21.255928 59.14719 -21.246092 55.037621 -36.027779 164.72076
151000000000 -23.159466 68.70929 -21.217539 38.026394 -21.209936 35.064171 -35.756065 132.42659
151100000000 -22.699635 59.908005 -21.167135 17.447058 -21.175049 14.905823 -35.304199 99.254463
151200000000 -22.804512 51.572517 -21.101402 -2.9964976 -21.091379 -6.3872805 -34.759552 68.548424
151300000000 -23.477425 44.426445 -21.052984 -24.538092 -21.0242 -27.602079 -35.077881 36.991066
151400000000 -24.560131 38.242283 -21.011749 -45.754784 -20.988617 -48.023903 -36.633713 -0.5629282
151500000000 -25.767633 34.891476 -20.985622 -66.876945 -20.973255 -69.490051 -38.707439 -53.764915
151600000000 -26.32641 38.858612 -20.971451 -88.169624 -20.979258 -90.835358 -38.257748 -120.07414
151700000000 -25.782522 45.665947 -21.002609 -109.07461 -21.015272 -111.71849 -35.882023 -174.07295
151800000000 -24.542509 48.732246 -21.061895 -130.44418 -21.076277 -131.98694 -34.154362 140.27377
151900000000 -23.370667 44.525814 -21.124081 -151.19508 -21.113274 -153.15469 -32.512203 98.570488
152000000000 -22.591972 36.192936 -21.151329 -170.68837 -21.126152 -173.30865 -31.478428 63.727921
152100000000 -22.070066 24.717739 -21.103428 168.72017 -21.080549 167.20073 -31.018423 33.38385
152200000000 -22.027962 12.943953 -20.969629 147.96344 -20.964226 146.76436 -31.229557 4.309361
152300000000 -22.511341 2.371856 -20.778418 127.78579 -20.783709 125.52571 -32.484375 -25.891859
152400000000 -23.652618 -5.4081941 -20.590357 106.09729 -20.600435 104.61124 -33.838634 -62.716156
152500000000 -25.597031 -9.6749191 -20.483934 83.370323 -20.478527 82.635704 -35.028847 -107.17612
152600000000 -27.687567 -5.8751092 -20.51519 61.328945 -20.506956 59.852791 -35.981514 -151.85028
152700000000 -28.292843 6.6036196 -20.690569 40.299397 -20.668242 38.357185 -37.562813 163.5229
152800000000 -27.141609 12.689613 -20.916294 18.636213 -20.891172 17.502022 -37.986378 112.66216
152900000000 -25.310106 10.305679 -21.064196 -1.5259387 -21.068146 -2.7592707 -37.889988 68.551193
153000000000 -23.937714 3.8186343 -21.080231 -19.920977 -21.08382 -21.883352 -37.889771 31.821615
153100000000 -23.276457 -5.0306911 -20.946667 -39.695431 -20.950075 -41.450562 -38.703266 0.12368708
153200000000 -23.179438 -15.870232 -20.739599 -61.038063 -20.733534 -62.40382 -39.527035 -35.321419
153300000000 -23.686499 -28.74938 -20.561518 -81.054222 -20.548651 -82.779068 -39.307911 -71.380013
153400000000 -24.529413 -42.369667 -20.415991 -102.38443 -20.411345 -104.40235 -36.898766 -108.97869
153500000000 -25.970448 -54.157478 -20.354605 -125.37589 -20.345715 -126.87955 -34.66568 -137.69402
153600000000 -28.443895 -58.950134 -20.358456 -146.19759 -20.358927 -148.01073 -33.492085 -158.04095
153700000000 -31.547651 -49.348129 -20.392494 -166.51082 -20.392839 -169.10254 -32.232052 -177.48979
153800000000 -33.320892 -26.937202 -20.451996 170.47934 -20.407017 168.43375 -31.226784 157.75545
153900000000 -31.146013 -13.273211 -20.517622 149.85596 -20.519192 147.85022 -31.208466 131.27525
154000000000 -28.498167 -18.375647 -20.626022 130.4991 -20.652611 127.55486 -32.479286 104.03382
154100000000 -26.676519 -28.637686 -20.72938 108.78642 -20.742348 106.66912 -35.554756 79.371162
154200000000 -25.729834 -41.215752 -20.748236 89.729492 -20.745197 87.162598 -44.227913 58.150532
154300000000 -25.929897 -55.173927 -20.607977 71.026184 -20.593927 68.044418 -41.972069 -149.57129
154400000000 -26.79401 -72.966789 -20.408649 49.30809 -20.374022 46.771461 -33.019005 -171.79218
154500000000 -28.553461 -92.324379 -20.191328 28.832575 -20.157789 25.310751 -29.098158 168.03015
154600000000 -31.269011 -111.57424 -20.015503 7.7724404 -20.010145 4.5257192 -27.259394 148.46729
154700000000 -36.144386 -130.19925 -19.969624 -15.81087 -19.984911 -19.30673 -26.749166 129.20465
154800000000 -53.497299 -99.548859 -20.068945 -37.683689 -20.113705 -41.523548 -27.031914 111.69715
154900000000 -38.473087 -0.034118406 -20.297688 -57.864223 -20.327652 -61.894684 -28.019377 96.298569
155000000000 -33.869442 -13.110161 -20.499548 -79.169144 -20.508806 -83.245506 -29.725533 88.947762
155100000000 -32.43259 -31.939058 -20.601952 -98.467155 -20.616177 -102.6424 -31.024002 94.007095
155200000000 -31.987549 -52.001717 -20.565329 -116.72934 -20.541151 -121.22581 -30.582008 104.36995
155300000000 -31.693581 -74.100716 -20.411921 -137.4408 -20.390316 -142.73259 -28.936312 106.65221
155400000000 -32.732159 -92.867279 -20.22883 -158.51981 -20.202677 -163.60315 -27.527452 103.82164
155500000000 -35.463562 -111.52654 -20.089359 -178.89639 -20.077547 175.58734 -26.442656 98.391724
155600000000 -40.992352 -148.91847 -20.069189 159.02986 -20.072895 152.60852 -26.160929 89.705521
155700000000 -43.555439 119.24893 -20.145321 137.22617 -20.167437 131.40926 -26.453028 83.396561
155800000000 -39.448269 69.113998 -20.242474 117.86504 -20.263464 111.44824 -26.344881 80.050041
155900000000 -36.818085 33.333073 -20.287167 96.658669 -20.315327 90.092209 -26.01683 76.640831
156000000000 -34.426655 7.3790975 -20.28299 76.2416 -20.28167 69.297134 -25.414961 72.625397
156100000000 -32.692467 -8.5230684 -20.234346 56.339432 -20.224056 49.24963 -24.918827 66.532089
156200000000 -32.300041 -25.752975 -20.205685 34.608257 -20.207943 27.131193 -24.569216 59.107742
156300000000 -34.044445 -39.121941 -20.243666 13.723997 -20.271955 6.0133486 -24.87701 51.638279
156400000000 -35.938351 -45.97562 -20.321436 -2.3444948 -20.348087 -7.6403966 -25.615473 47.92326
156500000000 -39.536503 -49.040928 -20.382277 -22.963017 -20.398161 -29.087717 -26.357313 48.904835
156600000000 -41.357372 -26.395788 -20.386581 -42.746407 -20.377769 -49.47208 -26.058601 52.375305
156700000000 -37.406105 -2.0512114 -20.326847 -63.594608 -20.310635 -69.238449 -24.886215 50.306519
156800000000 -32.957142 -2.5286367 -20.271038 -84.905426 -20.254265 -91.395386 -24.093842 41.119831
156900000000 -31.103785 -12.048093 -20.285833 -105.4811 -20.284761 -112.55262 -23.925838 30.705328
157000000000 -30.442036 -25.795172 -20.339128 -127.43903 -20.363979 -133.06187 -24.295767 20.402391
157100000000 -30.046648 -42.71291 -20.456656 -148.33388 -20.488226 -154.99965 -25.175446 13.912977
157200000000 -29.793478 -57.489738 -20.562616 -167.99634 -20.578869 -174.56462 -26.111679 14.14177
157300000000 -30.620443 -68.177826 -20.603357 171.01982 -20.607019 165.86844 -26.391951 19.042196
157400000000 -32.12289 -69.346252 -20.571661 151.36469 -20.557043 144.48221 -25.703386 22.386362
157500000000 -32.772865 -61.147575 -20.50124 131.19196 -20.490147 124.46802 -24.545826 19.033779
157600000000 -32.679695 -56.13419 -20.459206 109.47392 -20.458958 103.71946 -23.839939 8.4630842
157700000000 -31.65798 -59.475353 -20.466398 88.866646 -20.480501 81.511818 -23.88175 -4.6972122
157800000000 -29.680077 -65.502571 -20.556326 68.184204 -20.57649 61.302464 -24.769953 -18.057852
157900000000 -28.173006 -76.788261 -20.648417 46.749466 -20.676908 41.628525 -26.137838 -27.950678
158000000000 -27.47151 -90.750694 -20.692253 27.304243 -20.701199 20.162588 -27.900297 -30.847382
158100000000 -27.808508 -100.30365 -20.656857 7.866972 -20.64967 1.0673468 -29.636768 -24.791742
158200000000 -28.687603 -114.13095 -20.562531 -13.783134 -20.560715 -18.984509 -29.781158 -15.565914
158300000000 -29.060549 -125.65066 -20.473215 -33.956345 -20.481541 -41.514435 -28.520996 -12.713967
158400000000 -29.940924 -131.26373 -20.448025 -55.339603 -20.460464 -61.819279 -27.200994 -17.997498
158500000000 -31.249519 -130.10207 -20.529387 -77.289612 -20.570665 -83.180748 -26.735514 -28.252478
158600000000 -32.011265 -122.90983 -20.692474 -97.148331 -20.715527 -104.78101 -27.147287 -39.682644
158700000000 -31.144875 -122.28614 -20.837687 -117.76943 -20.861355 -123.13625 -28.20524 -50.944504
158800000000 -29.235592 -127.94356 -20.85689 -137.22415 -20.854553 -143.61165 -30.032501 -56.846916
158900000000 -27.657051 -134.33086 -20.773115 -156.51091 -20.758106 -163.34677 -31.083685 -56.383888
159000000000 -26.586599 -142.26254 -20.65361 -177.89148 -20.626404 176.78542 -31.379543 -64.56575
159100000000 -26.004715 -155.45918 -20.551985 162.34877 -20.561132 155.30295 -32.644638 -80.624985
159200000000 -25.848621 -172.04034 -20.48645 140.8568 -20.498734 135.0463 -35.207642 -98.239647
159300000000 -25.945728 173.14952 -20.476299 120.01442 -20.490541 113.7996 -41.199017 -114.98412
159400000000 -26.574249 161.48222 -20.474503 99.706902 -20.48967 92.836517 -53.112183 -16.952168
159500000000 -27.635717 153.16016 -20.46303 78.321838 -20.489288 72.807594 -39.499046 1.870221
159600000000 -29.650145 148.53542 -20.467699 58.337555 -20.4902 51.068539 -35.087376 -11.185211
159700000000 -31.724936 155.3884 -20.49081 36.832596 -20.522558 31.141537 -33.029858 -29.396889
159800000000 -31.179018 166.95294 -20.555569 16.497988 -20.589712 10.188401 -33.205635 -56.102264
