!Keysight Technologies,N5224B,MY60213280,A.17.35.14
!Date: Thursday, May 28, 2026 12:03:38
!Correction: S11(C  2-Port  ) 
!S21(C  2-Port  ) 
!S12(C  2-Port  ) 
!S22(C  2-Port  ) 
!S2P File: Measurements: S11, S21, S12, S22:
# Hz S  dB   R 50
140000000000 -9.6259508 -131.78127 -4.2883515 146.67007 -4.2368603 133.07368 -16.42411 -96.826782
140100000000 -8.6076803 -150.73097 -4.7925038 103.7975 -4.6725388 95.918648 -16.332008 -171.34384
140200000000 -9.2398968 -165.951 -5.044034 66.922012 -4.9560971 60.721878 -17.761551 159.96027
140300000000 -10.059274 -175.50194 -5.1579394 25.866108 -5.0989113 24.638208 -17.094688 124.95358
140400000000 -10.713086 163.51366 -5.4649782 -6.5024991 -5.5456285 -5.3979621 -16.602259 94.729019
140500000000 -14.857883 159.15587 -4.7840438 -42.83461 -4.7285151 -39.485733 -21.834387 36.886784
140600000000 -13.606709 -179.61334 -4.2986875 -84.3619 -4.2332563 -78.631264 -23.701973 176.82597
140700000000 -10.128819 165.00589 -4.6975842 -124.76439 -4.6593308 -116.81036 -15.079556 114.33489
140800000000 -9.8329515 142.51987 -5.2067122 -159.795 -5.1492357 -151.76385 -14.337636 72.851822
140900000000 -10.716919 122.00726 -5.0275288 163.94928 -5.0213728 174.94664 -12.845438 48.888577
141000000000 -11.210633 97.769859 -5.466815 132.22844 -5.4959011 143.60097 -12.902617 19.287664
141100000000 -17.504135 62.664131 -4.383008 97.321136 -4.4205298 110.07944 -12.848736 -24.431513
141200000000 -24.248287 161.41393 -3.7959604 55.308315 -3.8166115 70.281021 -18.520742 -95.308533
141300000000 -14.22547 149.31697 -4.4355364 12.92804 -4.4447947 28.234722 -24.895199 131.41931
141400000000 -11.988393 121.0993 -5.484817 -19.546003 -5.5830832 -4.1782875 -21.758253 62.207958
141500000000 -12.288323 99.066315 -4.8508368 -47.73732 -5.0465503 -32.136566 -17.113638 39.470402
141600000000 -13.181075 76.503662 -4.4508147 -83.927666 -4.6988902 -69.911301 -16.23032 1.1218306
141700000000 -19.182667 59.453854 -3.9585907 -117.66442 -4.267025 -104.40347 -16.201443 -33.94453
141800000000 -20.612848 122.87243 -3.6406713 -155.744 -3.7969508 -143.69339 -19.670193 -87.891609
141900000000 -14.010472 117.97387 -3.9593959 160.93765 -3.8921247 176.97607 -33.976326 -158.86942
142000000000 -11.467549 88.821526 -4.9863539 125.31542 -4.6200895 141.95232 -26.849712 41.400368
142100000000 -12.262619 64.229965 -5.149991 94.235756 -4.7030382 113.82827 -22.688341 13.892899
142200000000 -13.695869 47.555809 -4.4207449 56.479271 -4.0444112 78.875992 -20.940432 -13.191856
142300000000 -17.299736 25.989788 -4.5435586 20.632524 -4.3087387 44.333061 -19.635693 -17.919403
142400000000 -25.697735 72.480225 -4.1656389 -13.262794 -3.8506773 9.733223 -18.967962 -49.057278
142500000000 -15.948749 97.416382 -3.7998679 -52.749344 -3.6277852 -27.408113 -24.241289 -62.821587
142600000000 -11.253127 64.802597 -4.0813556 -88.797508 -3.9352815 -65.328201 -24.770563 -9.1230021
142700000000 -12.072433 27.347942 -3.9912186 -125.79814 -3.8295102 -100.94459 -19.630522 -43.622509
142800000000 -14.737148 -1.7645807 -4.274806 -162.7823 -4.2091818 -138.63004 -21.39851 -36.239109
142900000000 -19.363911 -32.16436 -5.0358009 161.56165 -4.9607878 -174.06483 -16.225355 -37.938179
143000000000 -23.64909 -155.83588 -4.9794235 133.02664 -4.9624357 158.10126 -13.344362 -74.649124
143100000000 -15.932439 114.17607 -4.5482993 98.094963 -4.4852233 122.9447 -14.400045 -114.9483
143200000000 -12.67473 65.339485 -4.3277397 62.96265 -4.2405605 88.759872 -19.515257 -136.36279
143300000000 -13.689277 24.013039 -3.8233836 27.233589 -3.7677634 52.672646 -19.935667 -124.25758
143400000000 -19.113092 -6.0567818 -3.6091218 -14.46524 -3.5628123 12.381036 -20.503948 -154.42674
143500000000 -24.07093 -20.047995 -4.9754219 -55.83989 -4.9019308 -27.936886 -28.192602 -71.359383
143600000000 -18.412577 156.40881 -5.7501521 -78.856255 -5.7890911 -50.684162 -14.825804 -112.38059
143700000000 -12.0474 93.502663 -4.9301295 -110.80019 -4.9255724 -81.460579 -13.434663 -157.37276
143800000000 -10.120455 54.813812 -4.3508043 -145.40657 -4.3834758 -116.08004 -14.87314 160.504
143900000000 -10.834617 21.874861 -3.824414 178.4048 -3.8409867 -150.45853 -18.559891 125.27666
144000000000 -13.925946 -8.7958107 -3.3474047 139.56935 -3.3430681 171.5116 -23.655146 89.833771
144100000000 -19.24695 -22.219555 -3.3458526 97.450386 -3.3004599 130.1871 -25.460073 12.824078
144200000000 -37.108223 -128.58444 -5.0784473 59.433144 -5.0321751 93.290863 -16.870958 -88.154434
144300000000 -14.55374 73.857681 -5.2197156 38.976982 -5.2363043 63.082794 -13.866488 -158.61996
144400000000 -11.957918 36.003353 -4.5013199 6.8951783 -4.4797788 33.053581 -13.566458 158.87344
144500000000 -11.461813 0.7594021 -3.9561884 -28.185467 -3.9746432 -2.0283525 -14.40777 109.84352
144600000000 -13.910115 -33.869942 -3.3761172 -64.573883 -3.3831339 -38.691494 -17.877201 57.204185
144700000000 -21.097589 -69.444023 -2.9703419 -104.49303 -2.9369979 -77.251602 -23.547466 -18.028187
144800000000 -40.554901 93.693672 -3.4903815 -147.16628 -3.4912493 -120.47105 -19.494108 -106.89121
144900000000 -17.263756 77.971214 -5.2726474 -178.65987 -5.2905922 -151.39679 -13.717666 -168.3251
145000000000 -12.385455 31.704006 -4.7873173 154.38719 -4.8238897 -177.22736 -12.12782 144.67427
145100000000 -11.691875 -6.1039233 -4.0756826 120.14223 -4.0782528 149.41083 -12.087661 101.52085
145200000000 -14.684714 -43.457314 -3.5777733 84.299187 -3.5775104 114.41839 -15.756571 52.844395
145300000000 -25.337585 -70.166 -3.1438932 45.665268 -3.113693 75.205498 -29.121393 -10.790018
145400000000 -22.647955 44.224396 -3.36869 2.7651153 -3.4059064 34.413368 -22.123184 160.41992
145500000000 -18.361521 50.503246 -5.1797304 -32.672203 -5.202137 -3.0682693 -15.654924 142.87398
145600000000 -10.373829 13.855822 -5.2925258 -55.418198 -5.2841349 -26.106987 -10.974827 106.48425
145700000000 -9.898262 -26.101137 -4.5773778 -88.656563 -4.5457907 -57.180077 -10.50652 68.297539
145800000000 -11.993685 -64.594513 -4.0539818 -123.18163 -4.0219097 -93.023277 -12.157602 29.463955
145900000000 -19.125946 -89.87793 -3.5149381 -160.71417 -3.5199821 -128.6774 -17.873713 2.760859
146000000000 -26.077143 -32.226231 -3.4537802 160.25224 -3.5230074 -167.96028 -24.160332 41.940178
146100000000 -22.321507 -4.5403228 -4.5851779 118.60382 -4.6993437 152.05139 -22.636427 77.772018
146200000000 -11.836857 -21.589283 -5.4936261 95.739014 -5.5136104 131.47208 -12.698831 71.927551
146300000000 -10.409945 -65.122787 -4.646172 64.396919 -4.665041 101.25406 -11.091841 30.975485
146400000000 -10.889421 -106.83971 -3.954849 28.879946 -3.9687762 66.411156 -11.550128 -8.6609306
146500000000 -15.131956 -153.47153 -3.3892922 -5.7274137 -3.3792777 29.462162 -15.872138 -49.44453
146600000000 -22.376757 147.08524 -3.0423348 -45.420284 -3.1300933 -8.2278004 -32.861713 -105.02188
146700000000 -25.192551 10.69024 -3.6206563 -89.473167 -3.6661499 -51.222385 -25.421759 67.670975
146800000000 -15.682258 -22.983881 -5.2065773 -117.01868 -5.265553 -81.736534 -15.128865 63.354568
146900000000 -12.358816 -81.759933 -4.7282982 -143.42812 -4.7508812 -107.25427 -11.792575 20.106712
147000000000 -12.409 -131.62544 -4.0021963 -176.35875 -3.9986396 -142.53928 -11.338689 -17.079567
147100000000 -14.789061 171.82756 -3.5232332 148.54565 -3.5322044 -177.61113 -14.905023 -55.462872
147200000000 -18.999372 111.40009 -3.0554094 111.30197 -3.1117132 143.56027 -27.750927 -84.450829
147300000000 -22.707554 15.241922 -3.1442556 71.136063 -3.1875017 104.85168 -22.962639 21.946268
147400000000 -19.166349 -24.623566 -3.928272 31.042265 -4.0123134 65.098358 -17.489376 41.968033
147500000000 -12.358016 -83.879814 -5.3180537 5.2718015 -5.3877172 38.612423 -10.901178 10.534587
147600000000 -11.17979 -141.76955 -4.4757442 -24.019852 -4.4991946 10.546412 -9.9285164 -25.632517
147700000000 -12.058854 167.60831 -4.0027857 -57.986607 -4.0470986 -24.212549 -10.75705 -60.586147
147800000000 -15.688956 120.57489 -3.5169442 -93.434998 -3.5372713 -60.472919 -15.446068 -87.370377
147900000000 -26.0284 73.078468 -3.4294209 -131.51352 -3.4984889 -98.371788 -21.946148 -62.512016
148000000000 -31.636366 -125.68841 -3.6968627 -171.28293 -3.7885408 -137.18411 -20.043913 -33.443592
148100000000 -17.4988 -111.15836 -5.141202 155.36105 -5.2367759 -170.05179 -14.082582 -18.805191
148200000000 -11.000411 -165.74847 -5.2682018 130.15331 -5.3617821 163.96465 -10.329719 -50.014557
148300000000 -9.6195183 145.90765 -4.3501496 98.854454 -4.4020829 131.96295 -9.4811945 -82.572723
148400000000 -10.635282 105.14626 -3.9393864 63.980999 -3.9640496 96.574959 -10.932151 -116.46226
148500000000 -14.65922 73.152565 -3.6207297 28.411333 -3.6960616 60.533085 -16.186913 -138.95981
148600000000 -20.162958 74.09848 -3.7575476 -9.4573212 -3.8624847 22.570299 -22.762453 -140.95856
148700000000 -27.155565 94.765358 -4.3529835 -45.787594 -4.4667187 -13.041354 -24.980928 -37.168995
148800000000 -16.996365 144.46553 -4.7435899 -76.136467 -4.824821 -40.583099 -14.426598 -63.605106
148900000000 -11.930822 116.75684 -4.5077777 -103.16874 -4.6367335 -71.610481 -11.823282 -97.163155
149000000000 -10.14884 80.720528 -3.7034972 -139.02216 -3.8555288 -103.15407 -11.589179 -133.56476
149100000000 -11.779262 40.544304 -3.3818529 -177.30754 -3.382545 -139.71205 -14.280421 -175.47781
149200000000 -17.165758 14.398322 -3.0357614 146.91344 -3.1298044 -176.04504 -24.366514 125.29489
149300000000 -24.623037 44.913998 -3.4609911 105.44485 -3.5626874 143.8876 -23.871405 -36.704098
149400000000 -21.282726 124.15305 -4.539495 74.419945 -4.6137714 111.77515 -14.554071 -72.769234
149500000000 -13.957883 95.474892 -4.5088749 45.284962 -4.5652156 83.28241 -12.126801 -111.47386
149600000000 -11.887755 66.10321 -4.0982728 14.703232 -4.1300869 52.765739 -11.641905 -143.4689
149700000000 -12.588933 34.966351 -3.384521 -20.074848 -3.436847 17.42148 -13.335808 -177.79045
149800000000 -16.49103 5.9834442 -2.9368122 -57.171291 -2.9660821 -18.937946 -20.713606 134.4267
149900000000 -24.428955 70.209229 -3.1039155 -98.591843 -3.1615157 -59.836235 -20.302984 -88.397644
150000000000 -19.82386 77.720039 -4.2476921 -136.87674 -4.3346701 -97.760956 -15.169556 -115.01797
150100000000 -12.237109 76.366997 -5.0951858 -161.29164 -5.1201077 -122.73878 -11.04772 -142.64471
150200000000 -10.421742 48.206684 -4.7395153 167.59343 -4.7666712 -152.0089 -10.566339 -173.45773
150300000000 -10.235887 21.287565 -4.1120644 136.14853 -4.1183457 176.56699 -11.01995 156.33505
150400000000 -12.281013 -0.71218789 -3.519804 100.16702 -3.5500736 139.87708 -13.835541 122.38995
150500000000 -17.390606 0.67630744 -3.3970675 61.387848 -3.4453485 101.71192 -26.764561 122.35767
150600000000 -15.345038 18.350573 -4.2320147 22.963053 -4.3102274 62.492126 -18.157507 178.77298
150700000000 -13.740014 40.706745 -5.5641575 -4.1763902 -5.6316633 35.915089 -14.445634 -177.51122
150800000000 -10.03992 17.26553 -4.9882607 -31.831097 -5.0787644 7.2761803 -11.47839 152.56996
150900000000 -9.2128878 -9.2795305 -4.3566642 -62.852051 -4.3957429 -24.110836 -10.542835 120.66956
151000000000 -10.270185 -32.534615 -3.8216839 -97.975845 -3.9154475 -58.402641 -11.778169 85.372955
151100000000 -13.654612 -56.116787 -3.3744369 -133.29582 -3.4773281 -95.854507 -17.32539 45.276768
151200000000 -18.368372 -38.332878 -3.6111631 -172.46338 -3.7758973 -134.16606 -31.930717 96.925018
151300000000 -23.490669 -17.606388 -4.4787688 152.22679 -4.6897349 -168.97635 -23.734608 -173.02853
151400000000 -13.461758 -2.1216378 -4.7798567 125.58207 -4.8949404 165.25087 -13.696353 141.86824
151500000000 -11.080958 -30.702417 -4.2593207 94.760437 -4.3539629 134.71321 -11.914384 102.77761
151600000000 -10.787251 -61.032413 -3.6789057 60.717999 -3.8120182 102.54626 -12.287023 64.071579
151700000000 -13.743424 -99.911163 -2.8908548 24.157398 -3.042388 66.853683 -16.338158 11.386152
151800000000 -30.614641 -112.74339 -2.7092605 -15.255857 -2.8891048 26.874376 -27.737221 -107.25729
151900000000 -25.128872 -38.89716 -3.3943515 -55.86235 -3.6192193 -11.793261 -22.573593 148.62984
152000000000 -15.381226 -3.4104419 -4.7925234 -85.101189 -4.9473114 -40.725315 -13.89994 129.37445
152100000000 -12.262887 -39.376263 -4.4959478 -112.64732 -4.6086206 -68.191147 -11.710814 89.265755
152200000000 -10.992777 -71.430611 -3.9331658 -143.00868 -4.021029 -99.18045 -11.475091 55.690147
152300000000 -13.691121 -110.94684 -2.9591651 -179.71526 -3.1017289 -134.88728 -14.765782 18.160217
152400000000 -25.901579 -134.19098 -2.6411662 141.07661 -2.8254128 -174.28938 -28.633812 24.178535
152500000000 -19.207924 -44.116333 -3.2474656 100.93935 -3.4220278 145.79008 -17.332773 90.643257
152600000000 -18.459154 -40.143539 -4.8542256 64.203728 -5.0143437 108.95951 -15.256654 79.402908
152700000000 -11.997169 -60.663082 -5.2576361 42.806347 -5.4749298 90.761101 -11.14438 57.00518
152800000000 -10.318363 -95.494354 -4.73983 10.052764 -4.89252 60.732418 -10.490629 32.353188
152900000000 -10.938798 -128.90875 -3.8206785 -19.970709 -3.828639 28.999723 -11.097167 2.2793679
153000000000 -14.676955 -156.00807 -3.1492929 -59.29995 -3.2105079 -9.0865316 -14.738061 -19.23439
153100000000 -21.352568 -147.67549 -3.2117012 -98.850792 -3.3307128 -47.853153 -19.951756 -5.3940983
153200000000 -18.394335 -129.99362 -4.2102885 -136.12576 -4.3297153 -85.503044 -17.383471 14.630083
153300000000 -17.949617 -112.36757 -5.3400636 -165.04059 -5.4063764 -112.3112 -15.759231 15.050386
153400000000 -12.533248 -133.21986 -5.1917882 168.55075 -5.2167659 -138.6096 -12.352711 1.3750343
153500000000 -11.121227 -164.87045 -4.2985134 139.37859 -4.2520456 -168.04205 -11.482866 -26.660526
153600000000 -12.634573 160.87019 -3.457139 103.94141 -3.3936722 154.96118 -12.927411 -55.001537
153700000000 -16.982964 134.87292 -3.0308597 66.253113 -3.0144064 118.49062 -18.056932 -75.053368
153800000000 -23.241024 149.11658 -3.3336906 26.362038 -3.2920589 77.688683 -24.595385 -39.554264
153900000000 -23.86813 174.89645 -4.2016554 -7.7621994 -4.2303658 44.490444 -18.542566 -1.3223366
154000000000 -18.529984 -165.82764 -4.7399783 -38.118011 -4.8101053 14.27552 -15.33694 -17.530102
154100000000 -14.580683 171.6973 -4.7399745 -64.868927 -4.6607833 -11.655248 -13.417072 -38.169758
154200000000 -13.298348 133.19942 -3.7491026 -95.413452 -3.6039038 -44.640648 -14.207686 -68.170097
154300000000 -16.615036 88.366676 -2.9132347 -132.29715 -2.8276336 -80.234322 -19.73152 -99.669838
154400000000 -36.371006 65.34758 -2.6928709 -171.64832 -2.6398602 -121.91416 -27.440044 -2.3205035
154500000000 -23.263737 174.12199 -3.5366874 150.20439 -3.5317364 -159.19972 -17.27396 -6.3276052
154600000000 -16.287003 163.39761 -4.1342502 118.73319 -4.1309962 167.97865 -12.555278 -37.946037
154700000000 -15.135476 138.44173 -4.7262025 88.48922 -4.7065005 138.63916 -12.733182 -67.643791
154800000000 -14.181309 118.96973 -4.3317537 61.269569 -4.2462401 109.26747 -13.666458 -84.677696
154900000000 -15.89628 83.559059 -3.4839222 27.922651 -3.3444943 75.686302 -16.985491 -104.11292
155000000000 -28.238071 103.30813 -3.0601811 -9.9276943 -3.0403736 35.1423 -20.547018 -60.959072
155100000000 -17.564888 146.21526 -3.7332296 -48.840607 -3.7554517 -3.1216583 -14.610923 -57.465332
155200000000 -12.369705 138.3701 -4.5712972 -77.785675 -4.5442357 -33.2738 -10.907517 -71.974632
155300000000 -10.808814 99.714157 -4.6460848 -111.62487 -4.6834488 -66.439346 -10.197739 -105.54498
155400000000 -12.341084 83.449768 -5.0839009 -139.66718 -5.0371752 -94.537575 -11.967017 -126.85426
155500000000 -11.655252 64.929588 -4.3876734 -168.93047 -4.28474 -123.7568 -13.441467 -143.1953
155600000000 -14.940299 37.787796 -3.6100867 155.77452 -3.5581496 -160.03387 -18.570641 -159.89293
155700000000 -21.515583 76.458641 -3.5862989 118.06836 -3.6187971 162.65663 -21.138422 -103.24842
155800000000 -14.402273 91.932602 -4.123702 83.783272 -4.1767612 129.21062 -14.70092 -105.40901
155900000000 -11.186363 60.844692 -4.2517715 48.304726 -4.2893949 95.139343 -12.421359 -134.12558
156000000000 -13.28161 44.28569 -4.8641343 19.390768 -4.8721662 65.7407 -13.613028 -155.24416
156100000000 -11.531844 35.386581 -4.5376735 -9.6654682 -4.4159513 38.493984 -13.279271 -173.80807
156200000000 -12.335507 3.3405354 -3.5958848 -41.55724 -3.4350994 5.0901361 -15.588499 148.64235
156300000000 -20.496813 -18.858946 -3.0176105 -79.46743 -2.9242294 -32.597099 -29.542513 101.80072
156400000000 -20.669767 55.681194 -3.3036644 -118.62282 -3.2658539 -70.817078 -20.937248 -108.46449
156500000000 -15.090034 44.918808 -3.8186605 -153.74791 -3.8210056 -105.61956 -14.797688 -135.83719
156600000000 -15.320454 28.127701 -4.465189 175.23517 -4.395133 -135.92917 -14.09098 -166.17551
156700000000 -13.042579 20.54295 -4.5419655 146.27223 -4.3408341 -162.97874 -13.246159 172.43468
156800000000 -12.911847 -14.200028 -3.6796699 116.29076 -3.3784201 165.68657 -15.413327 134.42342
156900000000 -20.740631 -50.504337 -2.8770399 79.710373 -2.6642537 128.47656 -31.080198 81.856766
157000000000 -21.831667 56.711803 -2.8811715 38.585327 -2.7495232 87.85128 -18.890661 -122.88849
157100000000 -15.739324 37.837986 -3.5890625 1.9672647 -3.500226 51.698307 -14.355877 -150.66766
157200000000 -13.506799 12.948303 -4.5091105 -29.544014 -4.3786397 19.606375 -12.198665 175.50662
157300000000 -13.555184 -1.4477726 -4.7905474 -57.63998 -4.5777111 -7.5799203 -12.805782 150.39316
157400000000 -13.352642 -24.145201 -4.3418336 -85.576012 -4.0736465 -37.254395 -14.455761 125.62469
157500000000 -18.379402 -40.400661 -3.5006244 -121.01575 -3.2488704 -72.187294 -21.210108 117.83112
157600000000 -19.025875 11.004632 -3.3418331 -159.90987 -3.1966887 -110.8783 -18.924562 170.2383
157700000000 -14.413846 4.4086795 -4.0014262 164.2972 -3.9027071 -145.73346 -14.154022 156.81544
157800000000 -10.325812 -18.340273 -4.3182263 133.21344 -4.1058421 -176.19994 -10.7327 132.15186
157900000000 -11.14204 -52.492393 -4.6270046 99.082115 -4.5172791 151.56477 -11.328399 100.2388
158000000000 -13.745465 -64.874359 -4.8979669 70.717979 -4.6572747 123.24866 -13.699249 80.413078
158100000000 -15.00286 -76.511185 -4.2968645 39.576702 -4.005908 94.227875 -16.016159 63.218666
158200000000 -20.30443 -86.539764 -3.5450275 4.6652145 -3.3159723 59.236107 -22.301437 75.643318
158300000000 -19.267145 -37.429249 -3.626054 -33.010563 -3.4544885 22.522505 -19.030937 114.98658
158400000000 -13.402736 -46.989807 -3.9423542 -65.904076 -3.7047803 -9.1760054 -13.936368 106.71023
158500000000 -11.424428 -83.610497 -3.7349584 -99.964066 -3.5285304 -42.341568 -12.193892 74.116989
158600000000 -13.56949 -118.77955 -3.9858196 -134.41507 -3.8284221 -77.466675 -13.700137 46.430279
158700000000 -17.593599 -132.11665 -4.2050552 -163.95216 -3.9203455 -106.38731 -16.672569 24.931797
158800000000 -21.370472 -152.32596 -3.6586549 164.70708 -3.3944936 -139.24829 -23.034529 -2.4840963
158900000000 -38.913986 49.75774 -3.226006 128.62457 -3.0592382 -176.67253 -26.406767 124.3815
159000000000 -18.69846 -40.928822 -3.5462763 92.764862 -3.4009063 148.86006 -16.656111 108.577
159100000000 -13.237858 -80.804085 -3.7593205 61.785633 -3.6059742 116.78833 -12.406301 71.704384
159200000000 -12.988535 -124.98099 -3.4719107 29.142294 -3.3152585 84.454613 -12.841901 39.775272
159300000000 -15.303102 -163.28387 -3.3738554 -5.9230647 -3.3386848 48.732727 -14.162344 12.871011
159400000000 -20.727737 163.23592 -3.6133492 -38.814171 -3.5120075 16.060638 -19.346466 -15.242449
159500000000 -34.917324 55.951191 -3.3829296 -73.184753 -3.271235 -17.06628 -39.56525 105.49994
159600000000 -20.6749 -54.216183 -3.6149144 -109.75238 -3.6172354 -54.300594 -17.203497 88.577248
159700000000 -13.733011 -85.076332 -4.5006895 -140.16611 -4.3899875 -83.094589 -11.144957 62.676903
159800000000 -11.322228 -132.4075 -3.985949 -170.0114 -3.8979385 -112.79163 -10.16313 25.274517
